VG, VDS, ID, IG
-10.0, 0.1, 1.1379e-09, -7.7115e-09
-9.8, 0.1, 1.0431e-09, -6.1307e-09
-9.6, 0.1, 1.0171e-09, -5.0103e-09
-9.4, 0.1, 9.4982e-10, -4.2612e-09
-9.2, 0.1, 1.0482e-09, -3.8108e-09
-9.0, 0.1, 1.0295e-09, -3.4957e-09
-8.8, 0.1, 9.9737e-10, -3.2444e-09
-8.6, 0.1, 9.7513e-10, -3.033e-09
-8.4, 0.1, 9.6078e-10, -2.8503e-09
-8.2, 0.1, 9.2026e-10, -2.6863e-09
-8.0, 0.1, 9.0743e-10, -2.5418e-09
-7.8, 0.1, 8.7729e-10, -2.453e-09
-7.6, 0.1, 8.5951e-10, -2.3078e-09
-7.4, 0.1, 8.0623e-10, -2.1799e-09
-7.2, 0.1, 7.9915e-10, -2.0663e-09
-7.0, 0.1, 7.5975e-10, -2.0106e-09
-6.8, 0.1, 7.2046e-10, -1.9197e-09
-6.6, 0.1, 6.5708e-10, -1.8346e-09
-6.4, 0.1, 6.3152e-10, -1.7404e-09
-6.2, 0.1, 5.7962e-10, -1.6561e-09
-6.0, 0.1, 5.2085e-10, -1.5745e-09
-5.8, 0.1, 4.3881e-10, -1.4878e-09
-5.6, 0.1, 3.2806e-10, -1.4067e-09
-5.4, 0.1, 2.3849e-10, -1.3299e-09
-5.2, 0.1, 1.2623e-10, -1.2558e-09
-5.0, 0.1, 2.2777e-10, -1.3349e-09
-4.8, 0.1, 1.0054e-10, -1.2009e-09
-4.6, 0.1, 7.5689e-11, -1.1857e-09
-4.4, 0.1, 4.3802e-11, -1.118e-09
-4.2, 0.1, 3.2983e-11, -1.043e-09
-4.0, 0.1, 1.6887e-11, -9.7178e-10
-3.8, 0.1, 1.4233e-11, -9.0198e-10
-3.6, 0.1, 6.052e-12, -8.2974e-10
-3.4, 0.1, 3.165e-12, -7.621e-10
-3.2, 0.1, 6.28e-13, -6.9626e-10
-3.0, 0.1, 5.57e-13, -6.41e-10
-2.8, 0.1, 2.62e-13, -5.7326e-10
-2.6, 0.1, 1.21e-13, -5.1485e-10
-2.4, 0.1, 7.3e-14, -4.601e-10
-2.2, 0.1, 3.7e-14, -4.0574e-10
-2.0, 0.1, 2.5e-14, -3.5715e-10
-1.8, 0.1, -2.7e-14, -3.0725e-10
-1.6, 0.1, -3.9e-14, -2.6381e-10
-1.4, 0.1, -3.2e-14, -2.2453e-10
-1.2, 0.1, -2.5e-14, -1.8848e-10
-1.0, 0.1, -1.7e-14, -1.533e-10
-0.8, 0.1, 3.3e-14, -1.2032e-10
-0.6, 0.1, 2.9e-14, -8.647e-11
-0.4, 0.1, 3e-14, -5.489e-11
-0.2, 0.1, -1e-14, -2.453e-11
0.0, 0.1, -2.9e-14, 3.04e-12
0.2, 0.1, -2.7e-14, 3.661e-11
0.4, 0.1, -2.3e-14, 6.397e-11
0.6, 0.1, -2.4e-14, 9.288e-11
0.8, 0.1, -3.8e-14, 1.2391e-10
1.0, 0.1, 1.6e-14, 1.5609e-10
1.2, 0.1, 4.3e-14, 1.8866e-10
1.4, 0.1, 3.7e-14, 2.2799e-10
1.6, 0.1, 1.8e-14, 2.656e-10
1.8, 0.1, -7e-15, 3.0487e-10
2.0, 0.1, -2.3e-14, 3.4572e-10
2.2, 0.1, -4e-14, 3.9164e-10
2.4, 0.1, -4.3e-14, 4.3193e-10
2.6, 0.1, -2.4e-14, 4.7666e-10
2.8, 0.1, -1.4e-14, 5.1874e-10
3.0, 0.1, 2.5e-14, 5.6458e-10
3.2, 0.1, 9e-15, 6.0911e-10
3.4, 0.1, 2e-15, 6.5797e-10
3.6, 0.1, 4.3e-14, 7.0451e-10
3.8, 0.1, -1e-15, 7.5397e-10
4.0, 0.1, -1.9e-14, 8.0079e-10
4.2, 0.1, -3.2e-14, 8.5175e-10
4.4, 0.1, -2.9e-14, 9.0238e-10
4.6, 0.1, -3.3e-14, 9.495e-10
4.8, 0.1, -3.8e-14, 1.004e-09
5.0, 0.1, -4.8e-14, 1.0543e-09
5.2, 0.1, -4.5e-14, 1.1049e-09
5.4, 0.1, 8e-15, 1.1537e-09
5.6, 0.1, -2.1e-14, 1.2036e-09
5.8, 0.1, 1.2e-14, 1.2544e-09
6.0, 0.1, -1.6e-14, 1.3067e-09
6.2, 0.1, 1.1e-14, 1.3558e-09
6.4, 0.1, 2.7e-14, 1.4033e-09
6.6, 0.1, 2.8e-14, 1.4482e-09
6.8, 0.1, 2.1e-14, 1.4964e-09
7.0, 0.1, 2.7e-14, 1.5432e-09
7.2, 0.1, -8e-15, 1.5863e-09
7.4, 0.1, -1e-15, 1.6308e-09
7.6, 0.1, -1.7e-14, 1.6738e-09
7.8, 0.1, 9e-15, 1.7184e-09
8.0, 0.1, -2e-15, 1.7574e-09
8.2, 0.1, -1.9e-14, 1.8008e-09
8.4, 0.1, 1.3e-14, 1.8425e-09
8.6, 0.1, 2.9e-14, 1.8676e-09
8.8, 0.1, 4.3e-14, 1.9361e-09
9.0, 0.1, 2.2e-14, 1.9775e-09
9.2, 0.1, 3e-14, 2.0254e-09
9.4, 0.1, -2.2e-14, 2.0764e-09
9.6, 0.1, 1.9e-14, 2.1271e-09
9.8, 0.1, -4e-15, 2.1699e-09
10.0, 0.1, -5e-14, 2.2206e-09
10.0, 0.1, -5.9e-14, 2.2157e-09
9.8, 0.1, -7.2e-14, 2.1588e-09
9.6, 0.1, -2e-14, 2.0981e-09
9.4, 0.1, -2.1e-14, 2.0899e-09
9.2, 0.1, -1.6e-14, 2.0435e-09
9.0, 0.1, 1.9e-14, 2.0068e-09
8.8, 0.1, -7e-15, 1.9485e-09
8.6, 0.1, -4e-15, 1.8964e-09
8.4, 0.1, 4e-15, 1.8431e-09
8.2, 0.1, 3.6e-14, 1.7898e-09
8.0, 0.1, -1e-14, 1.7338e-09
7.8, 0.1, -6e-15, 1.6812e-09
7.6, 0.1, -2.3e-14, 1.6263e-09
7.4, 0.1, -1.4e-14, 1.5705e-09
7.2, 0.1, -4.5e-14, 1.517e-09
7.0, 0.1, -1.5e-14, 1.4621e-09
6.8, 0.1, 7e-15, 1.4069e-09
6.6, 0.1, 9.6e-14, 1.3516e-09
6.4, 0.1, 1.71e-13, 1.2962e-09
6.2, 0.1, 4.46e-13, 1.2422e-09
6.0, 0.1, 4.75e-13, 1.1896e-09
5.8, 0.1, 1.561e-12, 1.1363e-09
5.6, 0.1, 2.941e-12, 1.0801e-09
5.4, 0.1, 3.716e-12, 1.029e-09
5.2, 0.1, 7.254e-12, 9.7563e-10
5.0, 0.1, 1.2308e-11, 9.1543e-10
4.8, 0.1, 2.1976e-11, 8.6061e-10
4.6, 0.1, 2.9676e-11, 8.0387e-10
4.4, 0.1, 3.9325e-11, 7.5101e-10
4.2, 0.1, 5.605e-11, 7.0091e-10
4.0, 0.1, 7.1389e-11, 6.5208e-10
3.8, 0.1, 8.8824e-11, 5.9951e-10
3.6, 0.1, 1.0539e-10, 5.4785e-10
3.4, 0.1, 1.3977e-10, 4.6899e-10
3.2, 0.1, 1.7096e-10, 3.616e-10
3.0, 0.1, 2.0045e-10, 2.8156e-10
2.8, 0.1, 2.2566e-10, 2.1815e-10
2.6, 0.1, 2.6279e-10, 1.4633e-10
2.4, 0.1, 2.9252e-10, 9.586e-11
2.2, 0.1, 3.2535e-10, 4.028e-11
2.0, 0.1, 3.4307e-10, -3.165e-11
1.8, 0.1, 3.8011e-10, -9.434e-11
1.6, 0.1, 4.0352e-10, -1.3821e-10
1.4, 0.1, 4.2674e-10, -1.9992e-10
1.2, 0.1, 4.5102e-10, -2.3882e-10
1.0, 0.1, 4.8043e-10, -3.1809e-10
0.8, 0.1, 4.9473e-10, -3.4694e-10
0.6, 0.1, 5.2407e-10, -3.9545e-10
0.4, 0.1, 5.4383e-10, -4.3453e-10
0.2, 0.1, 5.4307e-10, -5.1567e-10
0.0, 0.1, 5.6366e-10, -5.7716e-10
-0.2, 0.1, 5.9371e-10, -6.1685e-10
-0.4, 0.1, 6.0789e-10, -6.6486e-10
-0.6, 0.1, 6.4543e-10, -7.182e-10
-0.8, 0.1, 6.239e-10, -7.7282e-10
-1.0, 0.1, 6.8362e-10, -8.2669e-10
-1.2, 0.1, 6.65e-10, -8.7871e-10
-1.4, 0.1, 6.6081e-10, -9.3394e-10
-1.6, 0.1, 6.8433e-10, -9.9154e-10
-1.8, 0.1, 6.9329e-10, -1.0481e-09
-2.0, 0.1, 7.4731e-10, -1.1016e-09
-2.2, 0.1, 7.4005e-10, -1.1587e-09
-2.4, 0.1, 7.65e-10, -1.2133e-09
-2.6, 0.1, 8.1512e-10, -1.2697e-09
-2.8, 0.1, 8.2424e-10, -1.3277e-09
-3.0, 0.1, 8.3938e-10, -1.383e-09
-3.2, 0.1, 8.2864e-10, -1.4379e-09
-3.4, 0.1, 8.413e-10, -1.4947e-09
-3.6, 0.1, 8.5704e-10, -1.5499e-09
-3.8, 0.1, 8.6947e-10, -1.6116e-09
-4.0, 0.1, 8.7765e-10, -1.6912e-09
-4.2, 0.1, 8.8797e-10, -1.7347e-09
-4.4, 0.1, 8.9323e-10, -1.7839e-09
-4.6, 0.1, 9.0764e-10, -1.8382e-09
-4.8, 0.1, 9.0527e-10, -1.8897e-09
-5.0, 0.1, 9.1266e-10, -1.9466e-09
-5.2, 0.1, 9.4446e-10, -1.9964e-09
-5.4, 0.1, 9.2954e-10, -2.0514e-09
-5.6, 0.1, 9.2703e-10, -2.1104e-09
-5.8, 0.1, 9.2126e-10, -2.1719e-09
-6.0, 0.1, 9.6045e-10, -2.2271e-09
-6.2, 0.1, 9.2564e-10, -2.2815e-09
-6.4, 0.1, 9.7111e-10, -2.3323e-09
-6.6, 0.1, 9.7764e-10, -2.3905e-09
-6.8, 0.1, 9.8095e-10, -2.4441e-09
-7.0, 0.1, 9.8728e-10, -2.5274e-09
-7.2, 0.1, 9.9963e-10, -2.6641e-09
-7.4, 0.1, 1.054e-09, -2.7839e-09
-7.6, 0.1, 1.0188e-09, -2.8139e-09
-7.8, 0.1, 1.0315e-09, -2.8735e-09
-8.0, 0.1, 1.021e-09, -2.9381e-09
-8.2, 0.1, 1.0231e-09, -2.9968e-09
-8.4, 0.1, 1.0241e-09, -3.0862e-09
-8.6, 0.1, 1.1137e-09, -3.2094e-09
-8.8, 0.1, 1.0496e-09, -3.2219e-09
-9.0, 0.1, 1.0401e-09, -3.2688e-09
-9.2, 0.1, 1.0387e-09, -3.3249e-09
-9.4, 0.1, 1.0396e-09, -3.4149e-09
-9.6, 0.1, 1.1046e-09, -3.5252e-09
-9.8, 0.1, 1.0809e-09, -3.5334e-09
-10.0, 0.1, 1.0996e-09, -3.6197e-09
