VG, VDS, ID, IG
-10.0, 0.1, 1.832e-07, -7.3079e-09
-9.8, 0.1, 1.7924e-07, -5.7223e-09
-9.6, 0.1, 1.7665e-07, -4.9573e-09
-9.4, 0.1, 1.7396e-07, -4.2193e-09
-9.2, 0.1, 1.7134e-07, -3.6421e-09
-9.0, 0.1, 1.6872e-07, -3.2686e-09
-8.8, 0.1, 1.6622e-07, -2.9764e-09
-8.6, 0.1, 1.6346e-07, -2.7476e-09
-8.4, 0.1, 1.6119e-07, -2.5449e-09
-8.2, 0.1, 1.588e-07, -2.4185e-09
-8.0, 0.1, 1.5629e-07, -2.2784e-09
-7.8, 0.1, 1.5391e-07, -2.1621e-09
-7.6, 0.1, 1.5138e-07, -2.0416e-09
-7.4, 0.1, 1.4901e-07, -1.9421e-09
-7.2, 0.1, 1.467e-07, -1.8362e-09
-7.0, 0.1, 1.4327e-07, -1.7362e-09
-6.8, 0.1, 1.4115e-07, -1.6264e-09
-6.6, 0.1, 1.3844e-07, -1.5521e-09
-6.4, 0.1, 1.3545e-07, -1.4749e-09
-6.2, 0.1, 1.3289e-07, -1.4004e-09
-6.0, 0.1, 1.3012e-07, -1.3256e-09
-5.8, 0.1, 1.2657e-07, -1.2186e-09
-5.6, 0.1, 1.2364e-07, -1.1901e-09
-5.4, 0.1, 1.2034e-07, -1.0924e-09
-5.2, 0.1, 1.1684e-07, -1.0342e-09
-5.0, 0.1, 1.1338e-07, -1.0268e-09
-4.8, 0.1, 1.0983e-07, -1.0226e-09
-4.6, 0.1, 1.0719e-07, -1.0518e-09
-4.4, 0.1, 1.0374e-07, -1.1445e-09
-4.2, 0.1, 1.0114e-07, -1.0427e-09
-4.0, 0.1, 9.82e-08, -8.9754e-10
-3.8, 0.1, 9.5356e-08, -8.2469e-10
-3.6, 0.1, 9.2947e-08, -7.5535e-10
-3.4, 0.1, 9.0048e-08, -6.7915e-10
-3.2, 0.1, 8.7484e-08, -6.1046e-10
-3.0, 0.1, 8.5577e-08, -5.3042e-10
-2.8, 0.1, 8.2935e-08, -4.6436e-10
-2.6, 0.1, 8.0708e-08, -4.5399e-10
-2.4, 0.1, 7.815e-08, -3.6848e-10
-2.2, 0.1, 7.5821e-08, -2.9006e-10
-2.0, 0.1, 7.3755e-08, -2.4807e-10
-1.8, 0.1, 7.1809e-08, -1.9988e-10
-1.6, 0.1, 6.9562e-08, -1.3818e-10
-1.4, 0.1, 6.7707e-08, -9.232e-11
-1.2, 0.1, 6.5993e-08, -4.321e-11
-1.0, 0.1, 6.4443e-08, -1.028e-11
-0.8, 0.1, 6.2802e-08, 2.722e-11
-0.6, 0.1, 6.0848e-08, 5.328e-11
-0.4, 0.1, 5.9776e-08, 8.376e-11
-0.2, 0.1, 5.8621e-08, 1.1969e-10
0.0, 0.1, 5.7036e-08, 1.5362e-10
0.2, 0.1, 5.5492e-08, 1.9649e-10
0.4, 0.1, 5.4102e-08, 2.3452e-10
0.6, 0.1, 5.2667e-08, 3.0063e-10
0.8, 0.1, 5.1348e-08, 3.5348e-10
1.0, 0.1, 4.9982e-08, 3.842e-10
1.2, 0.1, 4.9316e-08, 4.3656e-10
1.4, 0.1, 4.7998e-08, 4.6642e-10
1.6, 0.1, 4.6854e-08, 5.2635e-10
1.8, 0.1, 4.6001e-08, 5.8287e-10
2.0, 0.1, 4.4588e-08, 6.3568e-10
2.2, 0.1, 4.3521e-08, 6.8982e-10
2.4, 0.1, 4.2129e-08, 7.36e-10
2.6, 0.1, 4.1436e-08, 7.8977e-10
2.8, 0.1, 4.0799e-08, 8.3805e-10
3.0, 0.1, 3.9601e-08, 8.8593e-10
3.2, 0.1, 3.8737e-08, 9.4898e-10
3.4, 0.1, 3.7741e-08, 1.0135e-09
3.6, 0.1, 3.6975e-08, 1.0765e-09
3.8, 0.1, 3.5841e-08, 1.1372e-09
4.0, 0.1, 3.4944e-08, 1.1953e-09
4.2, 0.1, 3.4248e-08, 1.2572e-09
4.4, 0.1, 3.3441e-08, 1.3188e-09
4.6, 0.1, 3.2626e-08, 1.3781e-09
4.8, 0.1, 3.2013e-08, 1.4394e-09
5.0, 0.1, 3.1647e-08, 1.4982e-09
5.2, 0.1, 3.0838e-08, 1.5588e-09
5.4, 0.1, 3.001e-08, 1.6146e-09
5.6, 0.1, 2.9468e-08, 1.672e-09
5.8, 0.1, 2.8833e-08, 1.7306e-09
6.0, 0.1, 2.8453e-08, 1.7876e-09
6.2, 0.1, 2.759e-08, 1.9027e-09
6.4, 0.1, 2.7181e-08, 1.9267e-09
6.6, 0.1, 2.6761e-08, 1.9714e-09
6.8, 0.1, 2.6354e-08, 2.0361e-09
7.0, 0.1, 2.57e-08, 2.1368e-09
7.2, 0.1, 2.5087e-08, 2.1558e-09
7.4, 0.1, 2.4755e-08, 2.1982e-09
7.6, 0.1, 2.4131e-08, 2.2466e-09
7.8, 0.1, 2.3986e-08, 2.2991e-09
8.0, 0.1, 2.3411e-08, 2.3491e-09
8.2, 0.1, 2.3018e-08, 2.3984e-09
8.4, 0.1, 2.2611e-08, 2.4505e-09
8.6, 0.1, 2.2136e-08, 2.5037e-09
8.8, 0.1, 2.1955e-08, 2.5859e-09
9.0, 0.1, 2.1356e-08, 2.6811e-09
9.2, 0.1, 2.0997e-08, 2.6993e-09
9.4, 0.1, 2.0695e-08, 2.7424e-09
9.6, 0.1, 2.0416e-08, 2.7911e-09
9.8, 0.1, 2.0188e-08, 2.8387e-09
10.0, 0.1, 1.9903e-08, 2.9121e-09
10.0, 0.1, 2.0077e-08, 2.8344e-09
9.8, 0.1, 2.0449e-08, 2.6266e-09
9.6, 0.1, 2.093e-08, 2.4707e-09
9.4, 0.1, 2.1311e-08, 2.2934e-09
9.2, 0.1, 2.1879e-08, 2.1937e-09
9.0, 0.1, 2.2585e-08, 2.1321e-09
8.8, 0.1, 2.3202e-08, 2.0508e-09
8.6, 0.1, 2.3876e-08, 1.969e-09
8.4, 0.1, 2.4255e-08, 1.8852e-09
8.2, 0.1, 2.5079e-08, 1.8071e-09
8.0, 0.1, 2.5731e-08, 1.7292e-09
7.8, 0.1, 2.66e-08, 1.6561e-09
7.6, 0.1, 2.7029e-08, 1.5845e-09
7.4, 0.1, 2.7781e-08, 1.5106e-09
7.2, 0.1, 2.8464e-08, 1.442e-09
7.0, 0.1, 2.9463e-08, 1.3781e-09
6.8, 0.1, 3.0211e-08, 1.3111e-09
6.6, 0.1, 3.1587e-08, 1.2452e-09
6.4, 0.1, 3.2254e-08, 1.1828e-09
6.2, 0.1, 3.2933e-08, 1.1211e-09
6.0, 0.1, 3.4275e-08, 1.0573e-09
5.8, 0.1, 3.5313e-08, 9.9806e-10
5.6, 0.1, 3.6648e-08, 9.3967e-10
5.4, 0.1, 3.7767e-08, 8.8516e-10
5.2, 0.1, 3.908e-08, 8.2794e-10
5.0, 0.1, 4.0889e-08, 7.751e-10
4.8, 0.1, 4.2576e-08, 7.1988e-10
4.6, 0.1, 4.4208e-08, 6.657e-10
4.4, 0.1, 4.5891e-08, 5.7811e-10
4.2, 0.1, 4.7413e-08, 5.5882e-10
4.0, 0.1, 4.9441e-08, 5.097e-10
3.8, 0.1, 5.1014e-08, 4.5963e-10
3.6, 0.1, 5.2952e-08, 4.2121e-10
3.4, 0.1, 5.4724e-08, 3.6514e-10
3.2, 0.1, 5.7229e-08, 3.1124e-10
3.0, 0.1, 5.9036e-08, 2.7693e-10
2.8, 0.1, 6.0542e-08, 2.3615e-10
2.6, 0.1, 6.2748e-08, 1.9448e-10
2.4, 0.1, 6.4497e-08, 1.464e-10
2.2, 0.1, 6.7046e-08, 1.0512e-10
2.0, 0.1, 6.875e-08, 6.566e-11
1.8, 0.1, 7.0702e-08, 2.655e-11
1.6, 0.1, 7.2705e-08, -1.291e-11
1.4, 0.1, 7.4936e-08, -6.245e-11
1.2, 0.1, 7.7209e-08, -9.736e-11
1.0, 0.1, 7.9122e-08, -1.3942e-10
0.8, 0.1, 8.0927e-08, -1.9011e-10
0.6, 0.1, 8.3438e-08, -2.438e-10
0.4, 0.1, 8.5482e-08, -2.7506e-10
0.2, 0.1, 8.7986e-08, -3.3524e-10
0.0, 0.1, 9.0073e-08, -3.7134e-10
-0.2, 0.1, 9.201e-08, -4.2012e-10
-0.4, 0.1, 9.4136e-08, -4.6143e-10
-0.6, 0.1, 9.6142e-08, -4.9153e-10
-0.8, 0.1, 9.8102e-08, -5.4921e-10
-1.0, 0.1, 1.006e-07, -5.9413e-10
-1.2, 0.1, 1.0235e-07, -6.4563e-10
-1.4, 0.1, 1.0425e-07, -6.928e-10
-1.6, 0.1, 1.0665e-07, -7.2094e-10
-1.8, 0.1, 1.0904e-07, -7.649e-10
-2.0, 0.1, 1.1189e-07, -8.5473e-10
-2.2, 0.1, 1.1347e-07, -8.5346e-10
-2.4, 0.1, 1.1535e-07, -8.8601e-10
-2.6, 0.1, 1.1715e-07, -9.2111e-10
-2.8, 0.1, 1.1934e-07, -9.5754e-10
-3.0, 0.1, 1.2133e-07, -9.9932e-10
-3.2, 0.1, 1.232e-07, -1.0462e-09
-3.4, 0.1, 1.252e-07, -1.0959e-09
-3.6, 0.1, 1.2704e-07, -1.1464e-09
-3.8, 0.1, 1.2874e-07, -1.2015e-09
-4.0, 0.1, 1.3101e-07, -1.2558e-09
-4.2, 0.1, 1.3259e-07, -1.3035e-09
-4.4, 0.1, 1.3463e-07, -1.3558e-09
-4.6, 0.1, 1.3631e-07, -1.4094e-09
-4.8, 0.1, 1.3856e-07, -1.4823e-09
-5.0, 0.1, 1.4067e-07, -1.5797e-09
-5.2, 0.1, 1.4259e-07, -1.6029e-09
-5.4, 0.1, 1.4447e-07, -1.6461e-09
-5.6, 0.1, 1.4617e-07, -1.6997e-09
-5.8, 0.1, 1.4811e-07, -1.7476e-09
-6.0, 0.1, 1.4973e-07, -1.8235e-09
-6.2, 0.1, 1.5165e-07, -1.9123e-09
-6.4, 0.1, 1.5314e-07, -1.9333e-09
-6.6, 0.1, 1.5441e-07, -1.9828e-09
-6.8, 0.1, 1.5604e-07, -2.0518e-09
-7.0, 0.1, 1.5801e-07, -2.2136e-09
-7.2, 0.1, 1.5949e-07, -2.3253e-09
-7.4, 0.1, 1.6147e-07, -2.4257e-09
-7.6, 0.1, 1.6295e-07, -2.5401e-09
-7.8, 0.1, 1.6446e-07, -2.6849e-09
-8.0, 0.1, 1.6642e-07, -2.724e-09
-8.2, 0.1, 1.6785e-07, -2.7534e-09
-8.4, 0.1, 1.6957e-07, -2.7799e-09
-8.6, 0.1, 1.7107e-07, -2.8007e-09
-8.8, 0.1, 1.7196e-07, -2.8489e-09
-9.0, 0.1, 1.7398e-07, -2.8972e-09
-9.2, 0.1, 1.7544e-07, -2.9784e-09
-9.4, 0.1, 1.7703e-07, -3.0152e-09
-9.6, 0.1, 1.7859e-07, -3.0788e-09
-9.8, 0.1, 1.7984e-07, -3.1545e-09
-10.0, 0.1, 1.8187e-07, -3.2405e-09
